#  HZ   S   DB   R     50.00 
! Rohde & Schwarz ZVA/B 
! 
! 
! 
 2.500000000000000E9    -1.520076377124533   9.639635140689394E1  
 2.503500000000000E9    -1.537046975630633   9.530234850630264E1  
 2.507000000000000E9    -1.549684092854639   9.436282759375672E1  
 2.510500000000000E9    -1.570177456915783   9.333475054037415E1  
 2.514000000000000E9    -1.587694519477134   9.226089112474926E1  
 2.517500000000000E9    -1.607180563256977   9.119705662809623E1  
 2.521000000000000E9    -1.613888847212351   9.013826808612969E1  
 2.524500000000000E9    -1.642374311814269   8.902465679720355E1  
 2.528000000000000E9    -1.675072790020158   8.793229630718206E1  
 2.531500000000000E9    -1.703879872369493   8.680783025443867E1  
 2.535000000000000E9    -1.726044348598285   8.561896798000883E1  
 2.538500000000000E9    -1.749432618933720   8.451288031691225E1  
 2.542000000000000E9    -1.771625611309397   8.334835891888146E1  
 2.545500000000000E9    -1.811539229277406   8.227231838605644E1  
 2.549000000000000E9    -1.829269284953757   8.109867256884557E1  
 2.552500000000000E9    -1.867815121361806   7.984028292598033E1  
 2.556000000000000E9    -1.895930155833676   7.860841079892461E1  
 2.559500000000000E9    -1.921215383245191   7.733798884393019E1  
 2.563000000000000E9    -1.961752976843693   7.605713837838181E1  
 2.566500000000000E9    -1.983207027657959   7.475413601490538E1  
 2.570000000000000E9    -2.024779163055685   7.344993010149183E1  
 2.573500000000000E9    -2.063059968308930   7.203780621722818E1  
 2.577000000000000E9    -2.099114922129854   7.071528394647032E1  
 2.580500000000000E9    -2.128448095928748   6.931468488290531E1  
 2.584000000000000E9    -2.173668074391854   6.787881254402642E1  
 2.587500000000000E9    -2.212607959263516   6.645272664535497E1  
 2.591000000000000E9    -2.273293451844697   6.492308507968248E1  
 2.594500000000000E9    -2.312795541835575   6.350799077225351E1  
 2.598000000000000E9    -2.345795770499307   6.190671912981043E1  
 2.601500000000000E9    -2.407567902512454   6.033853773282532E1  
 2.605000000000000E9    -2.457156412255544   5.878149770590319E1  
 2.608500000000000E9    -2.504599062523712   5.718145156088542E1  
 2.612000000000000E9    -2.563066511999993   5.546230914721874E1  
 2.615500000000000E9    -2.616666931492799   5.379125377804153E1  
 2.619000000000000E9    -2.677911785799412   5.203155961245511E1  
 2.622500000000000E9    -2.737067676180286   5.030863201700436E1  
 2.626000000000000E9    -2.813678469581349   4.850250131614058E1  
 2.629500000000000E9    -2.869043532468977   4.666704964456930E1  
 2.633000000000000E9    -2.935146646172071   4.483630585051002E1  
 2.636500000000000E9    -3.009665004146099   4.294650610554422E1  
 2.640000000000000E9    -3.082996815506825   4.088630491110706E1  
 2.643500000000000E9    -3.163676287823568   3.897725339390227E1  
 2.647000000000000E9    -3.248756900566249   3.691741799432433E1  
 2.650500000000000E9    -3.319120495818630   3.487130149655505E1  
 2.654000000000000E9    -3.407552725192629   3.275476061228084E1  
 2.657500000000000E9    -3.494691483711103   3.058769845661902E1  
 2.661000000000000E9    -3.584443233722859   2.840808003372631E1  
 2.664500000000000E9    -3.667531778830977   2.611809022198488E1  
 2.668000000000000E9    -3.761256346878297   2.381565660300361E1  
 2.671500000000000E9    -3.853133497261419   2.145614240241465E1  
 2.675000000000000E9    -3.952966181037042   1.901429047334477E1  
 2.678500000000000E9    -4.045624789631069   1.644809766956409E1  
 2.682000000000000E9    -4.136492701482882   1.386785701216541E1  
 2.685500000000000E9    -4.241645201140600   1.116673590589909E1  
 2.689000000000000E9    -4.342499267700290   8.457105387477622  
 2.692500000000000E9    -4.445953322223064   5.658885481484297  
 2.696000000000000E9    -4.547049903493388   2.770347300953727  
 2.699500000000000E9    -4.658078236748279  -2.392082029875177E-1  
 2.703000000000000E9    -4.760563183054390  -3.320972673876859  
 2.706500000000000E9    -4.873530575490825  -6.460683889937264  
 2.710000000000000E9    -4.979341103378301  -9.660110905869948  
 2.713500000000000E9    -5.086217834516246  -1.295943065865448E1  
 2.717000000000000E9    -5.186699132603795  -1.640069589412073E1  
 2.720500000000000E9    -5.282903381182775  -1.993270378563476E1  
 2.724000000000000E9    -5.382347490046714  -2.353130207513367E1  
 2.727500000000000E9    -5.475126310341636  -2.725950965665642E1  
 2.731000000000000E9    -5.570745430626709  -3.102136027804161E1  
 2.734500000000000E9    -5.655855442868098  -3.491231791120756E1  
 2.738000000000000E9    -5.721372263099872  -3.888439370036518E1  
 2.741500000000000E9    -5.790493333844371  -4.295166575859181E1  
 2.745000000000000E9    -5.861545017490864  -4.706471744147250E1  
 2.748500000000000E9    -5.909378148668055  -5.129307337087017E1  
 2.752000000000000E9    -5.966510931443227  -5.553769738653300E1  
 2.755500000000000E9    -6.002290985074477  -5.982205963849054E1  
 2.759000000000000E9    -6.027420199800202  -6.416383317190660E1  
 2.762500000000000E9    -6.039355558840480  -6.851433660321374E1  
 2.766000000000000E9    -6.036691039707225  -7.284703657260145E1  
 2.769500000000000E9    -6.034319600878378  -7.720231520325186E1  
 2.773000000000000E9    -6.019905686548687  -8.160406339335424E1  
 2.776500000000000E9    -5.987448754564315  -8.590225161339396E1  
 2.780000000000000E9    -5.944793642354965  -9.020497226832698E1  
 2.783500000000000E9    -5.895861774257837  -9.445443779757018E1  
 2.787000000000000E9    -5.829143324117131  -9.864475923559937E1  
 2.790500000000000E9    -5.769794855749623  -1.027710222385610E2  
 2.794000000000000E9    -5.699975629331946  -1.068707587687455E2  
 2.797500000000000E9    -5.616373294009105  -1.108513203333835E2  
 2.801000000000000E9    -5.533356742235545  -1.147509651141784E2  
 2.804500000000000E9    -5.443711618322864  -1.186416462278059E2  
 2.808000000000000E9    -5.346359164967003  -1.223555547875998E2  
 2.811500000000000E9    -5.248258194496136  -1.260694602552151E2  
 2.815000000000000E9    -5.145746647263025  -1.296398998623860E2  
 2.818500000000000E9    -5.049741326289349  -1.331471210280124E2  
 2.822000000000000E9    -4.950803050609874  -1.365668199022752E2  
 2.825500000000000E9    -4.845091785649125  -1.399146896701194E2  
 2.829000000000000E9    -4.746539812910372  -1.431152060989250E2  
 2.832500000000000E9    -4.641929504643207  -1.463425312398646E2  
 2.836000000000000E9    -4.543548193369315  -1.493876462233859E2  
 2.839500000000000E9    -4.448846936073085  -1.523770698309643E2  
 2.843000000000000E9    -4.341686934906805  -1.552958027974039E2  
 2.846500000000000E9    -4.253734612568618  -1.580847894766301E2  
 2.850000000000000E9    -4.158501149394485  -1.608382177743125E2  
 2.853500000000000E9    -4.063729923971021  -1.635177833521866E2  
 2.857000000000000E9    -3.968346994712974  -1.662357511799183E2  
 2.860500000000000E9    -3.884566199026824  -1.687355255318880E2  
 2.864000000000000E9    -3.791171116716141  -1.712553829558202E2  
 2.867500000000000E9    -3.713733242065231  -1.737135559068605E2  
 2.871000000000000E9    -3.632664693766967  -1.760377104142987E2  
 2.874500000000000E9    -3.552631454514042  -1.783931332276634E2  
 2.878000000000000E9    -3.483111137236173   1.793710155199174E2  
 2.881500000000000E9    -3.404346234036018   1.771271935432215E2  
 2.885000000000000E9    -3.332530189125580   1.750030015122344E2  
 2.888500000000000E9    -3.260443219798245   1.729046076411601E2  
 2.892000000000000E9    -3.197373019576586   1.708429994255786E2  
 2.895500000000000E9    -3.136713690049133   1.688624560151136E2  
 2.899000000000000E9    -3.071191861310469   1.668672832096534E2  
 2.902500000000000E9    -3.009846014338883   1.649410649225210E2  
 2.906000000000000E9    -2.947765734791945   1.630899612693179E2  
 2.909500000000000E9    -2.897093626915490   1.612971078443443E2  
 2.913000000000000E9    -2.834792147255943   1.594752359758364E2  
 2.916500000000000E9    -2.794398318839833   1.576798267493578E2  
 2.920000000000000E9    -2.743183099660298   1.559503850034502E2  
 2.923500000000000E9    -2.691958033044737   1.542409428324764E2  
 2.927000000000000E9    -2.647514702074752   1.526326045309787E2  
 2.930500000000000E9    -2.593204306704046   1.509922536810510E2  
 2.934000000000000E9    -2.553363385240036   1.494098604331050E2  
 2.937500000000000E9    -2.511316430947890   1.478604142690407E2  
 2.941000000000000E9    -2.469368071558730   1.463158618988670E2  
 2.944500000000000E9    -2.432710175619543   1.448035004855855E2  
 2.948000000000000E9    -2.388853287301719   1.433515775121199E2  
 2.951500000000000E9    -2.355032014485349   1.419149288522238E2  
 2.955000000000000E9    -2.318222558861911   1.404751105227738E2  
 2.958500000000000E9    -2.282788358043312   1.390340816796376E2  
 2.962000000000000E9    -2.256258883890553   1.376718853822055E2  
 2.965500000000000E9    -2.220730261397685   1.362827326093093E2  
 2.969000000000000E9    -2.189243113802404   1.349737328984535E2  
 2.972500000000000E9    -2.159748511754235   1.336135981834441E2  
 2.976000000000000E9    -2.133194186164126   1.322722843607307E2  
 2.979500000000000E9    -2.108147436831725   1.310088730935207E2  
 2.983000000000000E9    -2.079816165637190   1.297396681281245E2  
 2.986500000000000E9    -2.055575524545195   1.284754767043596E2  
 2.990000000000000E9    -2.030372996643704   1.272747747157760E2  
 2.993500000000000E9    -2.007193640624379   1.260569341981664E2  
 2.997000000000000E9    -1.991290395836399   1.248553285185742E2  
 3.000500000000000E9    -1.965280433932895   1.236456511109236E2  
 3.004000000000000E9    -1.942639102076997   1.224788251068280E2  
 3.007500000000000E9    -1.921576468563692   1.212693581914360E2  
 3.011000000000000E9    -1.903820373710114   1.201185215441845E2  
 3.014500000000000E9    -1.878454423612155   1.189753964521115E2  
 3.018000000000000E9    -1.869190116648625   1.177916517724856E2  
 3.021500000000000E9    -1.850496596289660   1.166714837630255E2  
 3.025000000000000E9    -1.836072804626026   1.156015779220451E2  
 3.028500000000000E9    -1.820391398346565   1.144723610472611E2  
 3.032000000000000E9    -1.801705180317399   1.133459716367733E2  
 3.035500000000000E9    -1.790016227681497   1.123189635303291E2  
 3.039000000000000E9    -1.773797636755895   1.112325216936311E2  
 3.042500000000000E9    -1.759670258401554   1.101572357259491E2  
 3.046000000000000E9    -1.748046098428609   1.091112019085394E2  
 3.049500000000000E9    -1.736668811695073   1.080487516815937E2  
 3.053000000000000E9    -1.733475808849288   1.070505070751198E2  
 3.056500000000000E9    -1.705279333284002   1.060319554099783E2  
 3.060000000000000E9    -1.698333186862326   1.049303304248228E2  
 3.063500000000000E9    -1.691947746219347   1.039775173240064E2  
 3.067000000000000E9    -1.680865663867627   1.029871162143699E2  
 3.070500000000000E9    -1.672091598012507   1.020029716458986E2  
 3.074000000000000E9    -1.673124703086413   1.009881596694826E2  
 3.077500000000000E9    -1.653220456209255   1.000491346476119E2  
 3.081000000000000E9    -1.659485010975675   9.909195186401708E1  
 3.084500000000000E9    -1.647304265719711   9.816210678571312E1  
 3.088000000000000E9    -1.639727534556820   9.717965189489034E1  
 3.091500000000000E9    -1.633005957268872   9.624866128442291E1  
 3.095000000000000E9    -1.628132888271745   9.534294642951159E1  
 3.098500000000000E9    -1.623141934550020   9.447237484996205E1  
 3.102000000000000E9    -1.609868745066441   9.351670361952345E1  
 3.105500000000000E9    -1.610974031671472   9.265200307589217E1  
 3.109000000000000E9    -1.600583284015916   9.174450917165844E1  
 3.112500000000000E9    -1.602284596423580   9.081562214727921E1  
 3.116000000000000E9    -1.597248731034349   8.997512566821101E1  
 3.119500000000000E9    -1.591444103647237   8.914477510615183E1  
 3.123000000000000E9    -1.588074636270753   8.823020495781250E1  
 3.126500000000000E9    -1.583106822763782   8.736286935882716E1  
 3.130000000000000E9    -1.576146433446517   8.657922119562090E1  
 3.133500000000000E9    -1.586615479064975   8.568442636225660E1  
 3.137000000000000E9    -1.582718461723595   8.487985997039714E1  
 3.140500000000000E9    -1.575260342079561   8.407348108212150E1  
 3.144000000000000E9    -1.575476926315069   8.324165392721257E1  
 3.147500000000000E9    -1.572922382297883   8.240944689332098E1  
 3.151000000000000E9    -1.571609785224741   8.160189703428112E1  
 3.154500000000000E9    -1.568218936292583   8.079657584035610E1  
 3.158000000000000E9    -1.561165924779946   8.004312832032605E1  
 3.161500000000000E9    -1.565104979889208   7.921980116646438E1  
 3.165000000000000E9    -1.567749003282730   7.836914215981827E1  
 3.168500000000000E9    -1.560200384584922   7.761510287488402E1  
 3.172000000000000E9    -1.570043414117876   7.674630170329732E1  
 3.175500000000000E9    -1.564091560052033   7.595964095299458E1  
 3.179000000000000E9    -1.560299598386214   7.519246836185954E1  
 3.182500000000000E9    -1.562395204469121   7.440472860072859E1  
 3.186000000000000E9    -1.560550338136946   7.359451300782985E1  
 3.189500000000000E9    -1.562416970612544   7.277703070548361E1  
 3.193000000000000E9    -1.565397592916840   7.197054711629316E1  
 3.196500000000000E9    -1.567156933740155   7.125157669764556E1  
 3.200000000000000E9    -1.564008080218546   7.046161684582638E1  
